
T11404 000:060 SEGGER J-Link V6.10i Log File (0001ms, 0031ms total)
T11404 000:060 DLL Compiled: Oct 25 2016 19:31:51 (0001ms, 0031ms total)
T11404 000:060 Logging started @ 2017-07-05 09:58 (0001ms, 0031ms total)
T11404 000:061 JLINK_SetWarnOutHandler(...) (0000ms, 0031ms total)
T11404 000:061 JLINK_OpenEx(...)
Firmware: J-Link ARM-OB STM32 compiled Aug 22 2012 19:52:04
Hardware: V7.00
S/N: 20090928
Feature(s): RDI,FlashDL,FlashBP,JFlash,GDBFullWEBSRV Webserver running on local port 19080 (0016ms, 0047ms total)
T11404 000:061   returns O.K. (0016ms, 0047ms total)
T11404 000:077 JLINK_SetErrorOutHandler(...) (0000ms, 0047ms total)
T11404 000:077 JLINK_ExecCommand("ProjectFile = "E:\Thuc tap Lumi\Code LoRa\code v 5_7_2017\MKL LoRaWAN GW v1.1.3.5\Keilc\JLinkSettings.ini"", ...).   returns 0x00 (0442ms, 0489ms total)
T11404 000:524 JLINK_ExecCommand("Device = MKL16Z32xxx4", ...). Device "MKL16Z32XXX4" selected.  returns 0x00 (0006ms, 0495ms total)
T11404 000:530 JLINK_ExecCommand("DisableConnectionTimeout", ...).   returns 0x01 (0000ms, 0495ms total)
T11404 000:530 JLINK_GetHardwareVersion()  returns 0x11170 (0000ms, 0495ms total)
T11404 000:530 JLINK_GetDLLVersion()  returns 61009 (0000ms, 0495ms total)
T11404 000:530 JLINK_GetFirmwareString(...) (0000ms, 0495ms total)
T11404 000:541 JLINK_GetDLLVersion()  returns 61009 (0000ms, 0495ms total)
T11404 000:541 JLINK_GetCompileDateTime() (0000ms, 0495ms total)
T11404 000:545 JLINK_GetFirmwareString(...) (0000ms, 0495ms total)
T11404 000:548 JLINK_GetHardwareVersion()  returns 0x11170 (0000ms, 0495ms total)
T11404 000:559 JLINK_TIF_Select(JLINKARM_TIF_SWD)  returns 0x00 (0002ms, 0497ms total)
T11404 000:561 JLINK_SetSpeed(5000) (0001ms, 0498ms total)
T11404 000:562 JLINK_GetId() >0x108 TIF>Found SWD-DP with ID 0x0BC11477 >0x0D TIF> >0x28 TIF> >0x0D TIF> >0x28 TIF> >0x0D TIF> >0x28 TIF> >0x0D TIF> >0x28 TIF> >0x0D TIF> >0x21 TIF> >0x0D TIF> >0x28 TIF> >0x0D TIF> >0x21 TIF> >0x0D TIF> >0x21 TIF> >0x0D TIF> >0x21 TIF> >0x0D TIF> >0x21 TIF> >0x0D TIF> >0x21 TIF> >0x0D TIF> >0x21 TIF> >0x0D TIF> >0x21 TIF> >0x0D TIF> >0x21 TIF> >0x0D TIF> >0x21 TIF> >0x0D TIF> >0x21 TIF> >0x0D TIF> >0x21 TIF> >0x0D TIF> >0x21 TIF> >0x0D TIF> >0x21 TIF> >0x0D TIF>
 >0x21 TIF> >0x0D TIF> >0x21 TIF> >0x0D TIF> >0x21 TIF> >0x0D TIF> >0x21 TIF> >0x0D TIF> >0x21 TIF> >0x0D TIF> >0x21 TIF> >0x0D TIF> >0x21 TIF> >0x0D TIF> >0x21 TIF> >0x0D TIF> >0x21 TIF> >0x0D TIF> >0x21 TIF> >0x0D TIF> >0x21 TIF> >0x0D TIF> >0x21 TIF> >0x0D TIF> >0x21 TIF> >0x0D TIF> >0x21 TIF> >0x0D TIF> >0x21 TIF> >0x0D TIF> >0x21 TIF> >0x0D TIF> >0x21 TIF> >0x0D TIF> >0x21 TIF> >0x0D TIF> >0x21 TIF> >0x0D TIF> >0x21 TIF> >0x0D TIF> >0x21 TIF> >0x0D TIF> >0x21 TIF> >0x0D TIF> >0x21 TIF> >0x0D TIF>
 >0x21 TIF> >0x0D TIF> >0x21 TIF> >0x0D TIF> >0x21 TIF> >0x0D TIF> >0x21 TIF> >0x0D TIF> >0x21 TIF> >0x0D TIF> >0x21 TIF> >0x0D TIF> >0x21 TIF> >0x0D TIF> >0x21 TIF> >0x0D TIF> >0x21 TIF> >0x0D TIF> >0x21 TIF> >0x0D TIF> >0x28 TIF> >0x0D TIF> >0x28 TIF> >0x0D TIF> >0x28 TIF> >0x0D TIF> >0x21 TIF> >0x0D TIF> >0x30 TIF> >0x108 TIF>Found SWD-DP with ID 0x0BC11477 >0x0D TIF> >0x28 TIF> >0x0D TIF> >0x28 TIF> >0x0D TIF> >0x28 TIF> >0x0D TIF> >0x28 TIF> >0x0D TIF> >0x21 TIF> >0x0D TIF> >0x28 TIF> >0x0D TIF>
 >0x21 TIF> >0x0D TIF> >0x21 TIF> >0x0D TIF> >0x21 TIF> >0x0D TIF> >0x21 TIF> >0x0D TIF> >0x21 TIF> >0x0D TIF> >0x21 TIF> >0x0D TIF> >0x21 TIF> >0x0D TIF> >0x21 TIF> >0x0D TIF> >0x21 TIF> >0x0D TIF> >0x21 TIF> >0x0D TIF> >0x21 TIF> >0x0D TIF> >0x21 TIF> >0x0D TIF> >0x21 TIF> >0x0D TIF> >0x21 TIF> >0x0D TIF> >0x21 TIF> >0x0D TIF> >0x21 TIF> >0x0D TIF> >0x21 TIF> >0x0D TIF> >0x21 TIF> >0x0D TIF> >0x21 TIF> >0x0D TIF> >0x21 TIF> >0x0D TIF> >0x21 TIF> >0x0D TIF> >0x21 TIF> >0x0D TIF> >0x21 TIF> >0x0D TIF>
 >0x21 TIF> >0x0D TIF> >0x21 TIF> >0x0D TIF> >0x21 TIF> >0x0D TIF> >0x21 TIF> >0x0D TIF> >0x21 TIF> >0x0D TIF> >0x21 TIF> >0x0D TIF> >0x21 TIF> >0x0D TIF> >0x21 TIF> >0x0D TIF> >0x21 TIF> >0x0D TIF> >0x21 TIF> >0x0D TIF> >0x21 TIF> >0x0D TIF> >0x21 TIF> >0x0D TIF> >0x21 TIF> >0x0D TIF> >0x21 TIF> >0x0D TIF> >0x21 TIF> >0x0D TIF> >0x21 TIF> >0x0D TIF> >0x21 TIF> >0x0D TIF> >0x21 TIF> >0x0D TIF> >0x21 TIF> >0x0D TIF> >0x21 TIF> >0x0D TIF> >0x21 TIF> >0x0D TIF> >0x21 TIF> >0x0D TIF> >0x21 TIF> >0x0D TIF>
 >0x28 TIF> >0x0D TIF> >0x28 TIF> >0x0D TIF> >0x28 TIF> >0x0D TIF> >0x21 TIF> >0x0D TIF> >0x21 TIF> >0x108 TIF>Found SWD-DP with ID 0x0BC11477 >0x0D TIF> >0x28 TIF> >0x0D TIF> >0x28 TIF> >0x0D TIF> >0x28 TIF> >0x0D TIF> >0x28 TIF> >0x0D TIF> >0x21 TIF> >0x0D TIF> >0x28 TIF> >0x0D TIF> >0x28 TIF> >0x0D TIF> >0x21 TIF> >0x0D TIF> >0x21 TIF> >0x0D TIF> >0x21 TIF>AP-IDR: 0x04770031, Type: AHB-AP >0x0D TIF> >0x28 TIF> >0x0D TIF> >0x28 TIF> >0x0D TIF> >0x28 TIF> >0x0D TIF> >0x21 TIF> >0x0D TIF> >0x21 TIF>
 >0x0D TIF> >0x28 TIF> >0x0D TIF> >0x21 TIF> >0x0D TIF> >0x21 TIF>Found Cortex-M0 r0p0, Little endian. -- CPU_ReadMem(4 bytes @ 0xE000EDF0) -- CPU_WriteMem(4 bytes @ 0xE000EDF0) -- CPU_ReadMem(4 bytes @ 0xE0002000)FPUnit: 2 code (BP) slots and 0 literal slots -- CPU_ReadMem(4 bytes @ 0xE000EDFC) -- CPU_WriteMem(4 bytes @ 0xE000EDFC) -- CPU_ReadMem(4 bytes @ 0xE0001000) -- CPU_WriteMem(4 bytes @ 0xE0001000)CoreSight components:ROMTbl 0 @ F0002000 -- CPU_ReadMem(16 bytes @ 0xF0002000)
 -- CPU_ReadMem(16 bytes @ 0xF0000FF0) -- CPU_ReadMem(16 bytes @ 0xF0000FE0)ROMTbl 0 [0]: FFFFE000, CID: B105900D, PID: 000BB932 MTB-M0+ -- CPU_ReadMem(16 bytes @ 0xF0001FF0) -- CPU_ReadMem(16 bytes @ 0xF0001FE0)ROMTbl 0 [1]: FFFFF000, CID: B105900D, PID: 0008E000 MTBDWT -- CPU_ReadMem(16 bytes @ 0xE00FFFF0) -- CPU_ReadMem(16 bytes @ 0xE00FFFE0)ROMTbl 0 [2]: F00FD000, CID: B105100D, PID: 000BB4C0 ROM TableROMTbl 1 @ E00FF000 -- CPU_ReadMem(16 bytes @ 0xE00FF000) -- CPU_ReadMem(16 bytes @ 0xE000EFF0)
 -- CPU_ReadMem(16 bytes @ 0xE000EFE0)ROMTbl 1 [0]: FFF0F000, CID: B105E00D, PID: 000BB008 SCS -- CPU_ReadMem(16 bytes @ 0xE0001FF0) -- CPU_ReadMem(16 bytes @ 0xE0001FE0)ROMTbl 1 [1]: FFF02000, CID: B105E00D, PID: 000BB00A DWT -- CPU_ReadMem(16 bytes @ 0xE0002FF0) -- CPU_ReadMem(16 bytes @ 0xE0002FE0)ROMTbl 1 [2]: FFF03000, CID: B105E00D, PID: 000BB00B FPB >0x0D TIF> >0x21 TIF>  returns 0x0BC11477 (0348ms, 0846ms total)
T11404 000:910 JLINK_GetDLLVersion()  returns 61009 (0000ms, 0846ms total)
T11404 000:910 JLINK_CORE_GetFound()  returns 0x60000FF (0000ms, 0846ms total)
T11404 000:910 JLINK_GetDebugInfo(0x100) -- Value=0xF0002000  returns 0x00 (0000ms, 0846ms total)
T11404 000:913 JLINK_GetDebugInfo(0x100) -- Value=0xF0002000  returns 0x00 (0000ms, 0846ms total)
T11404 000:913 JLINK_GetDebugInfo(0x101) -- Value=0x00000000  returns 0x00 (0000ms, 0846ms total)
T11404 000:913 JLINK_ReadMem (0xE0041FF0, 0x0010 Bytes, ...) -- CPU is running -- CPU_ReadMem(16 bytes @ 0xE0041FF0) - Data: 00 00 00 00 00 00 00 00 00 00 00 00 00 00 00 00  returns 0x00 (0001ms, 0847ms total)
T11404 000:914 JLINK_GetDebugInfo(0x102) -- Value=0xF0000000  returns 0x00 (0000ms, 0847ms total)
T11404 000:914 JLINK_CORE_GetFound()  returns 0x60000FF (0000ms, 0847ms total)
T11404 000:915 JLINK_GetDebugInfo(0x103) -- Value=0x00000000  returns 0x00 (0000ms, 0847ms total)
T11404 000:915 JLINK_ReadMem (0xE0040FF0, 0x0010 Bytes, ...) -- CPU is running -- CPU_ReadMem(16 bytes @ 0xE0040FF0) - Data: 00 00 00 00 00 00 00 00 00 00 00 00 00 00 00 00  returns 0x00 (0001ms, 0848ms total)
T11404 000:916 JLINK_GetDebugInfo(0x104) -- Value=0xE0000000  returns 0x00 (0000ms, 0848ms total)
T11404 000:916 JLINK_GetDebugInfo(0x105) -- Value=0xE0001000  returns 0x00 (0000ms, 0848ms total)
T11404 000:916 JLINK_GetDebugInfo(0x106) -- Value=0xE0002000  returns 0x00 (0000ms, 0848ms total)
T11404 000:916 JLINK_GetDebugInfo(0x107) -- Value=0xE000E000  returns 0x00 (0000ms, 0848ms total)
T11404 000:916 JLINK_GetDebugInfo(0x10C) -- Value=0xE000EDF0  returns 0x00 (0000ms, 0848ms total)
T11404 000:916 JLINK_ReadMemU32(0xE000ED00, 0x0001 Items, ...) -- CPU is running -- CPU_ReadMem(4 bytes @ 0xE000ED00) - Data: 00 C6 0C 41  returns 0x01 (0001ms, 0849ms total)
T11404 000:917 JLINK_SetResetType(JLINKARM_RESET_TYPE_NORMAL)  returns JLINKARM_RESET_TYPE_NORMAL (0000ms, 0849ms total)
T11404 000:917 JLINK_Reset() -- CPU is running -- CPU_WriteMem(4 bytes @ 0xE000EDF0) -- CPU is running -- CPU_WriteMem(4 bytes @ 0xE000EDFC) >0x35 TIF> -- CPU is running -- CPU_WriteMem(4 bytes @ 0xE000ED0C) -- CPU is running -- CPU_ReadMem(4 bytes @ 0xE000EDF0) -- CPU is running -- CPU_ReadMem(4 bytes @ 0xE000EDF0) -- CPU is running -- CPU_WriteMem(4 bytes @ 0xE000EDF0) -- CPU is running -- CPU_WriteMem(4 bytes @ 0xE000EDFC) -- CPU is running -- CPU_ReadMem(4 bytes @ 0xE000EDF0)
 -- CPU_WriteMem(4 bytes @ 0xE0002000) -- CPU_ReadMem(4 bytes @ 0xE000EDFC) -- CPU_ReadMem(4 bytes @ 0xE0001000) -- CPU_WriteMem(4 bytes @ 0xE0001000) (0025ms, 0874ms total)
T11404 000:942 JLINK_Halt()  returns 0x00 (0000ms, 0874ms total)
T11404 000:942 JLINK_IsHalted()  returns TRUE (0000ms, 0874ms total)
T11404 000:942 JLINK_ReadMemU32(0xE000EDF0, 0x0001 Items, ...) -- CPU_ReadMem(4 bytes @ 0xE000EDF0) - Data: 03 00 03 01  returns 0x01 (0001ms, 0875ms total)
T11404 000:943 JLINK_WriteU32(0xE000EDF0, 0xA05F0003) -- CPU_WriteMem(4 bytes @ 0xE000EDF0)  returns 0x00 (0001ms, 0876ms total)
T11404 000:944 JLINK_WriteU32(0xE000EDFC, 0x01000000) -- CPU_WriteMem(4 bytes @ 0xE000EDFC)  returns 0x00 (0001ms, 0877ms total)
T11404 000:956 JLINK_GetHWStatus(...)  returns 0x00 (0001ms, 0878ms total)
T11404 000:963 JLINK_GetNumBPUnits(Type = 0xFFFFFF00)  returns 0x02 (0001ms, 0879ms total)
T11404 000:964 JLINK_GetNumBPUnits(Type = 0xF0)  returns 0x2000 (0000ms, 0879ms total)
T11404 000:964 JLINK_GetNumWPUnits()  returns 0x02 (0000ms, 0879ms total)
T11404 000:970 JLINK_GetSpeed()  returns 0xFA0 (0000ms, 0879ms total)
T11404 000:976 JLINK_ReadMemU32(0xE000E004, 0x0001 Items, ...) -- CPU_ReadMem(4 bytes @ 0xE000E004) - Data: 00 00 00 00  returns 0x01 (0001ms, 0880ms total)
T11404 000:977 JLINK_Halt()  returns 0x00 (0000ms, 0880ms total)
T11404 000:977 JLINK_IsHalted()  returns TRUE (0000ms, 0880ms total)
T11404 000:984 JLINK_WriteMem(0x1FFFFC00, 0x05D0 Bytes, ...) - Data: 00 BE 0A E0 0D 78 2D 06 68 40 08 24 40 00 00 D3 ... -- CPU_WriteMem(1488 bytes @ 0x1FFFFC00)  returns 0x5D0 (0022ms, 0902ms total)
T11404 001:006 JLINK_WriteReg(R0, 0x00000000)  returns 0x00 (0000ms, 0902ms total)
T11404 001:006 JLINK_WriteReg(R1, 0x00B71B00)  returns 0x00 (0000ms, 0902ms total)
T11404 001:006 JLINK_WriteReg(R2, 0x00000001)  returns 0x00 (0000ms, 0902ms total)
T11404 001:006 JLINK_WriteReg(R3, 0x00000000)  returns 0x00 (0000ms, 0902ms total)
T11404 001:006 JLINK_WriteReg(R4, 0x00000000)  returns 0x00 (0000ms, 0902ms total)
T11404 001:006 JLINK_WriteReg(R5, 0x00000000)  returns 0x00 (0000ms, 0902ms total)
T11404 001:006 JLINK_WriteReg(R6, 0x00000000)  returns 0x00 (0000ms, 0902ms total)
T11404 001:006 JLINK_WriteReg(R7, 0x00000000)  returns 0x00 (0001ms, 0903ms total)
T11404 001:007 JLINK_WriteReg(R8, 0x00000000)  returns 0x00 (0000ms, 0903ms total)
T11404 001:007 JLINK_WriteReg(R9, 0x200001C8)  returns 0x00 (0000ms, 0903ms total)
T11404 001:007 JLINK_WriteReg(R10, 0x00000000)  returns 0x00 (0000ms, 0903ms total)
T11404 001:007 JLINK_WriteReg(R11, 0x00000000)  returns 0x00 (0000ms, 0903ms total)
T11404 001:007 JLINK_WriteReg(R12, 0x00000000)  returns 0x00 (0000ms, 0903ms total)
T11404 001:007 JLINK_WriteReg(R13 (SP), 0x20000C00)  returns 0x00 (0000ms, 0903ms total)
T11404 001:007 JLINK_WriteReg(R14, 0x1FFFFC01)  returns 0x00 (0000ms, 0903ms total)
T11404 001:007 JLINK_WriteReg(R15 (PC), 0x1FFFFC20)  returns 0x00 (0000ms, 0903ms total)
T11404 001:007 JLINK_WriteReg(XPSR, 0x01000000)  returns 0x00 (0000ms, 0903ms total)
T11404 001:007 JLINK_WriteReg(MSP, 0x20000C00)  returns 0x00 (0000ms, 0903ms total)
T11404 001:007 JLINK_WriteReg(PSP, 0x20000C00)  returns 0x00 (0000ms, 0903ms total)
T11404 001:007 JLINK_WriteReg(CFBP, 0x00000000)  returns 0x00 (0000ms, 0903ms total)
T11404 001:007 JLINK_SetBPEx(Addr = 0x1FFFFC00, Type = 0xFFFFFFF2)  returns 0x00000001 (0000ms, 0903ms total)
T11404 001:007 JLINK_Go() -- CPU_WriteMem(4 bytes @ 0xE0002000) -- CPU_ReadMem(4 bytes @ 0xE0001000) -- CPU_WriteMem(4 bytes @ 0xE0001000) -- CPU_WriteMem(4 bytes @ 0xE0002008) -- CPU_WriteMem(4 bytes @ 0xE000200C) -- CPU_WriteMem(4 bytes @ 0xE0001004) (0007ms, 0910ms total)
T11404 001:014 JLINK_IsHalted()  returns TRUE (0004ms, 0914ms total)
T11404 001:018 JLINK_ReadReg(R15 (PC))  returns 0x1FFFFC00 (0000ms, 0910ms total)
T11404 001:018 JLINK_ClrBPEx(BPHandle = 0x00000001)  returns 0x00 (0000ms, 0910ms total)
T11404 001:018 JLINK_ReadReg(R0)  returns 0x00000000 (0000ms, 0910ms total)
T11404 001:019 JLINK_WriteReg(R0, 0x00000000)  returns 0x00 (0000ms, 0910ms total)
T11404 001:019 JLINK_WriteReg(R1, 0x00B71B00)  returns 0x00 (0000ms, 0910ms total)
T11404 001:019 JLINK_WriteReg(R2, 0x00000001)  returns 0x00 (0000ms, 0910ms total)
T11404 001:019 JLINK_WriteReg(R3, 0x00000000)  returns 0x00 (0000ms, 0910ms total)
T11404 001:020 JLINK_WriteReg(R4, 0x00000000)  returns 0x00 (0000ms, 0910ms total)
T11404 001:020 JLINK_WriteReg(R5, 0x00000000)  returns 0x00 (0000ms, 0910ms total)
T11404 001:020 JLINK_WriteReg(R6, 0x00000000)  returns 0x00 (0000ms, 0910ms total)
T11404 001:020 JLINK_WriteReg(R7, 0x00000000)  returns 0x00 (0000ms, 0910ms total)
T11404 001:020 JLINK_WriteReg(R8, 0x00000000)  returns 0x00 (0000ms, 0910ms total)
T11404 001:020 JLINK_WriteReg(R9, 0x200001C8)  returns 0x00 (0000ms, 0910ms total)
T11404 001:020 JLINK_WriteReg(R10, 0x00000000)  returns 0x00 (0000ms, 0910ms total)
T11404 001:020 JLINK_WriteReg(R11, 0x00000000)  returns 0x00 (0000ms, 0910ms total)
T11404 001:020 JLINK_WriteReg(R12, 0x00000000)  returns 0x00 (0000ms, 0910ms total)
T11404 001:020 JLINK_WriteReg(R13 (SP), 0x20000C00)  returns 0x00 (0000ms, 0910ms total)
T11404 001:020 JLINK_WriteReg(R14, 0x1FFFFC01)  returns 0x00 (0000ms, 0910ms total)
T11404 001:020 JLINK_WriteReg(R15 (PC), 0x1FFFFC88)  returns 0x00 (0000ms, 0910ms total)
T11404 001:020 JLINK_WriteReg(XPSR, 0x01000000)  returns 0x00 (0000ms, 0910ms total)
T11404 001:020 JLINK_WriteReg(MSP, 0x20000C00)  returns 0x00 (0000ms, 0910ms total)
T11404 001:020 JLINK_WriteReg(PSP, 0x20000C00)  returns 0x00 (0000ms, 0910ms total)
T11404 001:020 JLINK_WriteReg(CFBP, 0x00000000)  returns 0x00 (0000ms, 0910ms total)
T11404 001:020 JLINK_SetBPEx(Addr = 0x1FFFFC00, Type = 0xFFFFFFF2)  returns 0x00000002 (0000ms, 0910ms total)
T11404 001:020 JLINK_Go() -- CPU_WriteMem(4 bytes @ 0xE0002000) -- CPU_ReadMem(4 bytes @ 0xE0001000) -- CPU_WriteMem(4 bytes @ 0xE0001000) (0005ms, 0915ms total)
T11404 001:025 JLINK_IsHalted()  returns FALSE (0001ms, 0916ms total)
T11404 001:076 JLINK_IsHalted()  returns TRUE (0004ms, 0919ms total)
T11404 001:080 JLINK_ReadReg(R15 (PC))  returns 0x1FFFFC00 (0000ms, 0915ms total)
T11404 001:080 JLINK_ClrBPEx(BPHandle = 0x00000002)  returns 0x00 (0000ms, 0915ms total)
T11404 001:080 JLINK_ReadReg(R0)  returns 0x00000000 (0000ms, 0915ms total)
T11404 001:132 JLINK_WriteReg(R0, 0x00000001)  returns 0x00 (0000ms, 0915ms total)
T11404 001:132 JLINK_WriteReg(R1, 0x00B71B00)  returns 0x00 (0000ms, 0915ms total)
T11404 001:132 JLINK_WriteReg(R2, 0x00000001)  returns 0x00 (0000ms, 0915ms total)
T11404 001:132 JLINK_WriteReg(R3, 0x00000000)  returns 0x00 (0000ms, 0915ms total)
T11404 001:132 JLINK_WriteReg(R4, 0x00000000)  returns 0x00 (0000ms, 0915ms total)
T11404 001:132 JLINK_WriteReg(R5, 0x00000000)  returns 0x00 (0000ms, 0915ms total)
T11404 001:132 JLINK_WriteReg(R6, 0x00000000)  returns 0x00 (0000ms, 0915ms total)
T11404 001:132 JLINK_WriteReg(R7, 0x00000000)  returns 0x00 (0000ms, 0915ms total)
T11404 001:132 JLINK_WriteReg(R8, 0x00000000)  returns 0x00 (0000ms, 0915ms total)
T11404 001:132 JLINK_WriteReg(R9, 0x200001C8)  returns 0x00 (0000ms, 0915ms total)
T11404 001:132 JLINK_WriteReg(R10, 0x00000000)  returns 0x00 (0000ms, 0915ms total)
T11404 001:132 JLINK_WriteReg(R11, 0x00000000)  returns 0x00 (0000ms, 0915ms total)
T11404 001:132 JLINK_WriteReg(R12, 0x00000000)  returns 0x00 (0000ms, 0915ms total)
T11404 001:132 JLINK_WriteReg(R13 (SP), 0x20000C00)  returns 0x00 (0000ms, 0915ms total)
T11404 001:132 JLINK_WriteReg(R14, 0x1FFFFC01)  returns 0x00 (0000ms, 0915ms total)
T11404 001:132 JLINK_WriteReg(R15 (PC), 0x1FFFFC64)  returns 0x00 (0000ms, 0915ms total)
T11404 001:132 JLINK_WriteReg(XPSR, 0x01000000)  returns 0x00 (0000ms, 0915ms total)
T11404 001:132 JLINK_WriteReg(MSP, 0x20000C00)  returns 0x00 (0000ms, 0915ms total)
T11404 001:132 JLINK_WriteReg(PSP, 0x20000C00)  returns 0x00 (0000ms, 0915ms total)
T11404 001:132 JLINK_WriteReg(CFBP, 0x00000000)  returns 0x00 (0000ms, 0915ms total)
T11404 001:132 JLINK_SetBPEx(Addr = 0x1FFFFC00, Type = 0xFFFFFFF2)  returns 0x00000003 (0000ms, 0915ms total)
T11404 001:132 JLINK_Go() -- CPU_WriteMem(4 bytes @ 0xE0002000) -- CPU_ReadMem(4 bytes @ 0xE0001000) -- CPU_WriteMem(4 bytes @ 0xE0001000) (0006ms, 0921ms total)
T11404 001:138 JLINK_IsHalted()  returns TRUE (0004ms, 0925ms total)
T11404 001:142 JLINK_ReadReg(R15 (PC))  returns 0x1FFFFC00 (0000ms, 0921ms total)
T11404 001:142 JLINK_ClrBPEx(BPHandle = 0x00000003)  returns 0x00 (0000ms, 0921ms total)
T11404 001:142 JLINK_ReadReg(R0)  returns 0x00000000 (0000ms, 0921ms total)
T11404 001:152 JLINK_WriteMem(0x1FFFFC00, 0x05D0 Bytes, ...) - Data: 00 BE 0A E0 0D 78 2D 06 68 40 08 24 40 00 00 D3 ... -- CPU_WriteMem(1488 bytes @ 0x1FFFFC00)  returns 0x5D0 (0018ms, 0939ms total)
T11404 001:170 JLINK_WriteReg(R0, 0x00000000)  returns 0x00 (0000ms, 0939ms total)
T11404 001:170 JLINK_WriteReg(R1, 0x00B71B00)  returns 0x00 (0000ms, 0939ms total)
T11404 001:170 JLINK_WriteReg(R2, 0x00000002)  returns 0x00 (0000ms, 0939ms total)
T11404 001:170 JLINK_WriteReg(R3, 0x00000000)  returns 0x00 (0000ms, 0939ms total)
T11404 001:170 JLINK_WriteReg(R4, 0x00000000)  returns 0x00 (0000ms, 0939ms total)
T11404 001:170 JLINK_WriteReg(R5, 0x00000000)  returns 0x00 (0000ms, 0939ms total)
T11404 001:170 JLINK_WriteReg(R6, 0x00000000)  returns 0x00 (0000ms, 0939ms total)
T11404 001:170 JLINK_WriteReg(R7, 0x00000000)  returns 0x00 (0000ms, 0939ms total)
T11404 001:170 JLINK_WriteReg(R8, 0x00000000)  returns 0x00 (0000ms, 0939ms total)
T11404 001:170 JLINK_WriteReg(R9, 0x200001C8)  returns 0x00 (0000ms, 0939ms total)
T11404 001:170 JLINK_WriteReg(R10, 0x00000000)  returns 0x00 (0000ms, 0939ms total)
T11404 001:170 JLINK_WriteReg(R11, 0x00000000)  returns 0x00 (0000ms, 0939ms total)
T11404 001:170 JLINK_WriteReg(R12, 0x00000000)  returns 0x00 (0000ms, 0939ms total)
T11404 001:170 JLINK_WriteReg(R13 (SP), 0x20000C00)  returns 0x00 (0000ms, 0939ms total)
T11404 001:170 JLINK_WriteReg(R14, 0x1FFFFC01)  returns 0x00 (0000ms, 0939ms total)
T11404 001:170 JLINK_WriteReg(R15 (PC), 0x1FFFFC20)  returns 0x00 (0000ms, 0939ms total)
T11404 001:171 JLINK_WriteReg(XPSR, 0x01000000)  returns 0x00 (0000ms, 0940ms total)
T11404 001:171 JLINK_WriteReg(MSP, 0x20000C00)  returns 0x00 (0000ms, 0940ms total)
T11404 001:171 JLINK_WriteReg(PSP, 0x20000C00)  returns 0x00 (0000ms, 0940ms total)
T11404 001:171 JLINK_WriteReg(CFBP, 0x00000000)  returns 0x00 (0000ms, 0940ms total)
T11404 001:171 JLINK_SetBPEx(Addr = 0x1FFFFC00, Type = 0xFFFFFFF2)  returns 0x00000004 (0000ms, 0940ms total)
T11404 001:171 JLINK_Go() -- CPU_WriteMem(4 bytes @ 0xE0002000) -- CPU_ReadMem(4 bytes @ 0xE0001000) -- CPU_WriteMem(4 bytes @ 0xE0001000) (0005ms, 0945ms total)
T11404 001:176 JLINK_IsHalted()  returns TRUE (0004ms, 0949ms total)
T11404 001:180 JLINK_ReadReg(R15 (PC))  returns 0x1FFFFC00 (0000ms, 0945ms total)
T11404 001:180 JLINK_ClrBPEx(BPHandle = 0x00000004)  returns 0x00 (0000ms, 0945ms total)
T11404 001:180 JLINK_ReadReg(R0)  returns 0x00000000 (0000ms, 0945ms total)
T11404 001:181 JLINK_WriteMem(0x200001F8, 0x0100 Bytes, ...) - Data: C0 06 00 20 B1 01 00 00 B9 01 00 00 BB 01 00 00 ... -- CPU_WriteMem(256 bytes @ 0x200001F8)  returns 0x100 (0004ms, 0949ms total)
T11404 001:185 JLINK_WriteReg(R0, 0x00000000)  returns 0x00 (0000ms, 0949ms total)
T11404 001:185 JLINK_WriteReg(R1, 0x00000100)  returns 0x00 (0000ms, 0949ms total)
T11404 001:185 JLINK_WriteReg(R2, 0x200001F8)  returns 0x00 (0000ms, 0949ms total)
T11404 001:185 JLINK_WriteReg(R3, 0x00000000)  returns 0x00 (0000ms, 0949ms total)
T11404 001:185 JLINK_WriteReg(R4, 0x00000000)  returns 0x00 (0000ms, 0949ms total)
T11404 001:185 JLINK_WriteReg(R5, 0x00000000)  returns 0x00 (0000ms, 0949ms total)
T11404 001:185 JLINK_WriteReg(R6, 0x00000000)  returns 0x00 (0000ms, 0949ms total)
T11404 001:185 JLINK_WriteReg(R7, 0x00000000)  returns 0x00 (0000ms, 0949ms total)
T11404 001:185 JLINK_WriteReg(R8, 0x00000000)  returns 0x00 (0000ms, 0949ms total)
T11404 001:185 JLINK_WriteReg(R9, 0x200001C8)  returns 0x00 (0000ms, 0949ms total)
T11404 001:185 JLINK_WriteReg(R10, 0x00000000)  returns 0x00 (0000ms, 0949ms total)
T11404 001:185 JLINK_WriteReg(R11, 0x00000000)  returns 0x00 (0000ms, 0949ms total)
T11404 001:185 JLINK_WriteReg(R12, 0x00000000)  returns 0x00 (0000ms, 0949ms total)
T11404 001:185 JLINK_WriteReg(R13 (SP), 0x20000C00)  returns 0x00 (0000ms, 0949ms total)
T11404 001:185 JLINK_WriteReg(R14, 0x1FFFFC01)  returns 0x00 (0000ms, 0949ms total)
T11404 001:185 JLINK_WriteReg(R15 (PC), 0x1FFFFCD4)  returns 0x00 (0000ms, 0949ms total)
T11404 001:185 JLINK_WriteReg(XPSR, 0x01000000)  returns 0x00 (0000ms, 0949ms total)
T11404 001:185 JLINK_WriteReg(MSP, 0x20000C00)  returns 0x00 (0000ms, 0949ms total)
T11404 001:185 JLINK_WriteReg(PSP, 0x20000C00)  returns 0x00 (0000ms, 0949ms total)
T11404 001:185 JLINK_WriteReg(CFBP, 0x00000000)  returns 0x00 (0000ms, 0949ms total)
T11404 001:185 JLINK_SetBPEx(Addr = 0x1FFFFC00, Type = 0xFFFFFFF2)  returns 0x00000005 (0000ms, 0949ms total)
T11404 001:185 JLINK_Go() -- CPU_WriteMem(4 bytes @ 0xE0002000) -- CPU_ReadMem(4 bytes @ 0xE0001000) -- CPU_WriteMem(4 bytes @ 0xE0001000) (0005ms, 0954ms total)
T11404 001:190 JLINK_IsHalted()  returns FALSE (0001ms, 0955ms total)
T11404 001:202 JLINK_IsHalted()  returns TRUE (0004ms, 0958ms total)
T11404 001:206 JLINK_ReadReg(R15 (PC))  returns 0x1FFFFC00 (0000ms, 0954ms total)
T11404 001:206 JLINK_ClrBPEx(BPHandle = 0x00000005)  returns 0x00 (0000ms, 0954ms total)
T11404 001:206 JLINK_ReadReg(R0)  returns 0x00000000 (0000ms, 0954ms total)
T11404 001:207 JLINK_WriteMem(0x200001F8, 0x0100 Bytes, ...) - Data: A4 3A 00 00 10 3A 02 D3 78 C8 78 C1 FA D8 52 07 ... -- CPU_WriteMem(256 bytes @ 0x200001F8)  returns 0x100 (0004ms, 0958ms total)
T11404 001:211 JLINK_WriteReg(R0, 0x00000100)  returns 0x00 (0000ms, 0958ms total)
T11404 001:211 JLINK_WriteReg(R1, 0x00000100)  returns 0x00 (0000ms, 0958ms total)
T11404 001:211 JLINK_WriteReg(R2, 0x200001F8)  returns 0x00 (0000ms, 0958ms total)
T11404 001:211 JLINK_WriteReg(R3, 0x00000000)  returns 0x00 (0000ms, 0958ms total)
T11404 001:211 JLINK_WriteReg(R4, 0x00000000)  returns 0x00 (0000ms, 0958ms total)
T11404 001:211 JLINK_WriteReg(R5, 0x00000000)  returns 0x00 (0000ms, 0958ms total)
T11404 001:211 JLINK_WriteReg(R6, 0x00000000)  returns 0x00 (0000ms, 0958ms total)
T11404 001:211 JLINK_WriteReg(R7, 0x00000000)  returns 0x00 (0000ms, 0958ms total)
T11404 001:211 JLINK_WriteReg(R8, 0x00000000)  returns 0x00 (0000ms, 0958ms total)
T11404 001:211 JLINK_WriteReg(R9, 0x200001C8)  returns 0x00 (0000ms, 0958ms total)
T11404 001:211 JLINK_WriteReg(R10, 0x00000000)  returns 0x00 (0000ms, 0958ms total)
T11404 001:211 JLINK_WriteReg(R11, 0x00000000)  returns 0x00 (0000ms, 0958ms total)
T11404 001:211 JLINK_WriteReg(R12, 0x00000000)  returns 0x00 (0000ms, 0958ms total)
T11404 001:211 JLINK_WriteReg(R13 (SP), 0x20000C00)  returns 0x00 (0000ms, 0958ms total)
T11404 001:211 JLINK_WriteReg(R14, 0x1FFFFC01)  returns 0x00 (0000ms, 0958ms total)
T11404 001:211 JLINK_WriteReg(R15 (PC), 0x1FFFFCD4)  returns 0x00 (0000ms, 0958ms total)
T11404 001:211 JLINK_WriteReg(XPSR, 0x01000000)  returns 0x00 (0000ms, 0958ms total)
T11404 001:211 JLINK_WriteReg(MSP, 0x20000C00)  returns 0x00 (0000ms, 0958ms total)
T11404 001:211 JLINK_WriteReg(PSP, 0x20000C00)  returns 0x00 (0000ms, 0958ms total)
T11404 001:212 JLINK_WriteReg(CFBP, 0x00000000)  returns 0x00 (0000ms, 0959ms total)
T11404 001:212 JLINK_SetBPEx(Addr = 0x1FFFFC00, Type = 0xFFFFFFF2)  returns 0x00000006 (0000ms, 0959ms total)
T11404 001:212 JLINK_Go() -- CPU_WriteMem(4 bytes @ 0xE0002000) -- CPU_ReadMem(4 bytes @ 0xE0001000) -- CPU_WriteMem(4 bytes @ 0xE0001000) (0005ms, 0964ms total)
T11404 001:217 JLINK_IsHalted()  returns FALSE (0001ms, 0965ms total)
T11404 001:220 JLINK_IsHalted()  returns FALSE (0000ms, 0964ms total)
T11404 001:222 JLINK_IsHalted()  returns TRUE (0004ms, 0968ms total)
T11404 001:226 JLINK_ReadReg(R15 (PC))  returns 0x1FFFFC00 (0000ms, 0964ms total)
T11404 001:226 JLINK_ClrBPEx(BPHandle = 0x00000006)  returns 0x00 (0000ms, 0964ms total)
T11404 001:226 JLINK_ReadReg(R0)  returns 0x00000000 (0000ms, 0964ms total)
T11404 001:227 JLINK_WriteMem(0x200001F8, 0x0100 Bytes, ...) - Data: F8 B5 0E 46 04 46 00 20 20 62 20 46 E1 68 88 47 ... -- CPU_WriteMem(256 bytes @ 0x200001F8)  returns 0x100 (0004ms, 0968ms total)
T11404 001:231 JLINK_WriteReg(R0, 0x00000200)  returns 0x00 (0000ms, 0968ms total)
T11404 001:231 JLINK_WriteReg(R1, 0x00000100)  returns 0x00 (0000ms, 0968ms total)
T11404 001:231 JLINK_WriteReg(R2, 0x200001F8)  returns 0x00 (0000ms, 0968ms total)
T11404 001:231 JLINK_WriteReg(R3, 0x00000000)  returns 0x00 (0000ms, 0968ms total)
T11404 001:231 JLINK_WriteReg(R4, 0x00000000)  returns 0x00 (0000ms, 0968ms total)
T11404 001:231 JLINK_WriteReg(R5, 0x00000000)  returns 0x00 (0000ms, 0968ms total)
T11404 001:231 JLINK_WriteReg(R6, 0x00000000)  returns 0x00 (0000ms, 0968ms total)
T11404 001:231 JLINK_WriteReg(R7, 0x00000000)  returns 0x00 (0000ms, 0968ms total)
T11404 001:231 JLINK_WriteReg(R8, 0x00000000)  returns 0x00 (0000ms, 0968ms total)
T11404 001:231 JLINK_WriteReg(R9, 0x200001C8)  returns 0x00 (0000ms, 0968ms total)
T11404 001:231 JLINK_WriteReg(R10, 0x00000000)  returns 0x00 (0000ms, 0968ms total)
T11404 001:231 JLINK_WriteReg(R11, 0x00000000)  returns 0x00 (0000ms, 0968ms total)
T11404 001:231 JLINK_WriteReg(R12, 0x00000000)  returns 0x00 (0000ms, 0968ms total)
T11404 001:231 JLINK_WriteReg(R13 (SP), 0x20000C00)  returns 0x00 (0000ms, 0968ms total)
T11404 001:231 JLINK_WriteReg(R14, 0x1FFFFC01)  returns 0x00 (0000ms, 0968ms total)
T11404 001:231 JLINK_WriteReg(R15 (PC), 0x1FFFFCD4)  returns 0x00 (0000ms, 0968ms total)
T11404 001:231 JLINK_WriteReg(XPSR, 0x01000000)  returns 0x00 (0000ms, 0968ms total)
T11404 001:231 JLINK_WriteReg(MSP, 0x20000C00)  returns 0x00 (0000ms, 0968ms total)
T11404 001:231 JLINK_WriteReg(PSP, 0x20000C00)  returns 0x00 (0000ms, 0968ms total)
T11404 001:231 JLINK_WriteReg(CFBP, 0x00000000)  returns 0x00 (0000ms, 0968ms total)
T11404 001:231 JLINK_SetBPEx(Addr = 0x1FFFFC00, Type = 0xFFFFFFF2)  returns 0x00000007 (0000ms, 0968ms total)
T11404 001:231 JLINK_Go() -- CPU_WriteMem(4 bytes @ 0xE0002000) -- CPU_ReadMem(4 bytes @ 0xE0001000) -- CPU_WriteMem(4 bytes @ 0xE0001000) (0006ms, 0974ms total)
T11404 001:237 JLINK_IsHalted()  returns FALSE (0001ms, 0975ms total)
T11404 001:244 JLINK_IsHalted()  returns TRUE (0004ms, 0978ms total)
T11404 001:248 JLINK_ReadReg(R15 (PC))  returns 0x1FFFFC00 (0000ms, 0974ms total)
T11404 001:248 JLINK_ClrBPEx(BPHandle = 0x00000007)  returns 0x00 (0000ms, 0974ms total)
T11404 001:248 JLINK_ReadReg(R0)  returns 0x00000000 (0000ms, 0974ms total)
T11404 001:249 JLINK_WriteMem(0x200001F8, 0x0100 Bytes, ...) - Data: F4 DC 30 BD 01 20 E7 E7 F8 04 00 20 E1 19 D6 66 ... -- CPU_WriteMem(256 bytes @ 0x200001F8)  returns 0x100 (0004ms, 0978ms total)
T11404 001:253 JLINK_WriteReg(R0, 0x00000300)  returns 0x00 (0000ms, 0978ms total)
T11404 001:253 JLINK_WriteReg(R1, 0x00000100)  returns 0x00 (0000ms, 0978ms total)
T11404 001:253 JLINK_WriteReg(R2, 0x200001F8)  returns 0x00 (0000ms, 0978ms total)
T11404 001:253 JLINK_WriteReg(R3, 0x00000000)  returns 0x00 (0000ms, 0978ms total)
T11404 001:253 JLINK_WriteReg(R4, 0x00000000)  returns 0x00 (0000ms, 0978ms total)
T11404 001:253 JLINK_WriteReg(R5, 0x00000000)  returns 0x00 (0000ms, 0978ms total)
T11404 001:253 JLINK_WriteReg(R6, 0x00000000)  returns 0x00 (0000ms, 0978ms total)
T11404 001:253 JLINK_WriteReg(R7, 0x00000000)  returns 0x00 (0000ms, 0978ms total)
T11404 001:253 JLINK_WriteReg(R8, 0x00000000)  returns 0x00 (0000ms, 0978ms total)
T11404 001:253 JLINK_WriteReg(R9, 0x200001C8)  returns 0x00 (0000ms, 0978ms total)
T11404 001:253 JLINK_WriteReg(R10, 0x00000000)  returns 0x00 (0000ms, 0978ms total)
T11404 001:253 JLINK_WriteReg(R11, 0x00000000)  returns 0x00 (0000ms, 0978ms total)
T11404 001:253 JLINK_WriteReg(R12, 0x00000000)  returns 0x00 (0000ms, 0978ms total)
T11404 001:253 JLINK_WriteReg(R13 (SP), 0x20000C00)  returns 0x00 (0000ms, 0978ms total)
T11404 001:253 JLINK_WriteReg(R14, 0x1FFFFC01)  returns 0x00 (0000ms, 0978ms total)
T11404 001:253 JLINK_WriteReg(R15 (PC), 0x1FFFFCD4)  returns 0x00 (0000ms, 0978ms total)
T11404 001:253 JLINK_WriteReg(XPSR, 0x01000000)  returns 0x00 (0000ms, 0978ms total)
T11404 001:253 JLINK_WriteReg(MSP, 0x20000C00)  returns 0x00 (0000ms, 0978ms total)
T11404 001:253 JLINK_WriteReg(PSP, 0x20000C00)  returns 0x00 (0000ms, 0978ms total)
T11404 001:253 JLINK_WriteReg(CFBP, 0x00000000)  returns 0x00 (0001ms, 0979ms total)
T11404 001:254 JLINK_SetBPEx(Addr = 0x1FFFFC00, Type = 0xFFFFFFF2)  returns 0x00000008 (0000ms, 0979ms total)
T11404 001:254 JLINK_Go() -- CPU_WriteMem(4 bytes @ 0xE0002000) -- CPU_ReadMem(4 bytes @ 0xE0001000) -- CPU_WriteMem(4 bytes @ 0xE0001000) (0005ms, 0984ms total)
T11404 001:259 JLINK_IsHalted()  returns FALSE (0001ms, 0985ms total)
T11404 001:262 JLINK_IsHalted()  returns FALSE (0000ms, 0984ms total)
T11404 001:264 JLINK_IsHalted()  returns TRUE (0004ms, 0988ms total)
T11404 001:268 JLINK_ReadReg(R15 (PC))  returns 0x1FFFFC00 (0000ms, 0984ms total)
T11404 001:268 JLINK_ClrBPEx(BPHandle = 0x00000008)  returns 0x00 (0000ms, 0984ms total)
T11404 001:268 JLINK_ReadReg(R0)  returns 0x00000000 (0000ms, 0984ms total)
T11404 001:269 JLINK_WriteMem(0x200001F8, 0x0100 Bytes, ...) - Data: FF FF FF FF FF FF FF FF FF FF FF FF FE FF FF FF ... -- CPU_WriteMem(256 bytes @ 0x200001F8)  returns 0x100 (0004ms, 0988ms total)
T11404 001:273 JLINK_WriteReg(R0, 0x00000400)  returns 0x00 (0000ms, 0988ms total)
T11404 001:273 JLINK_WriteReg(R1, 0x00000100)  returns 0x00 (0000ms, 0988ms total)
T11404 001:273 JLINK_WriteReg(R2, 0x200001F8)  returns 0x00 (0000ms, 0988ms total)
T11404 001:273 JLINK_WriteReg(R3, 0x00000000)  returns 0x00 (0000ms, 0988ms total)
T11404 001:273 JLINK_WriteReg(R4, 0x00000000)  returns 0x00 (0000ms, 0988ms total)
T11404 001:273 JLINK_WriteReg(R5, 0x00000000)  returns 0x00 (0000ms, 0988ms total)
T11404 001:273 JLINK_WriteReg(R6, 0x00000000)  returns 0x00 (0000ms, 0988ms total)
T11404 001:273 JLINK_WriteReg(R7, 0x00000000)  returns 0x00 (0000ms, 0988ms total)
T11404 001:273 JLINK_WriteReg(R8, 0x00000000)  returns 0x00 (0000ms, 0988ms total)
T11404 001:273 JLINK_WriteReg(R9, 0x200001C8)  returns 0x00 (0000ms, 0988ms total)
T11404 001:273 JLINK_WriteReg(R10, 0x00000000)  returns 0x00 (0000ms, 0988ms total)
T11404 001:273 JLINK_WriteReg(R11, 0x00000000)  returns 0x00 (0000ms, 0988ms total)
T11404 001:273 JLINK_WriteReg(R12, 0x00000000)  returns 0x00 (0000ms, 0988ms total)
T11404 001:273 JLINK_WriteReg(R13 (SP), 0x20000C00)  returns 0x00 (0000ms, 0988ms total)
T11404 001:273 JLINK_WriteReg(R14, 0x1FFFFC01)  returns 0x00 (0000ms, 0988ms total)
T11404 001:273 JLINK_WriteReg(R15 (PC), 0x1FFFFCD4)  returns 0x00 (0000ms, 0988ms total)
T11404 001:273 JLINK_WriteReg(XPSR, 0x01000000)  returns 0x00 (0000ms, 0988ms total)
T11404 001:273 JLINK_WriteReg(MSP, 0x20000C00)  returns 0x00 (0000ms, 0988ms total)
T11404 001:273 JLINK_WriteReg(PSP, 0x20000C00)  returns 0x00 (0000ms, 0988ms total)
T11404 001:273 JLINK_WriteReg(CFBP, 0x00000000)  returns 0x00 (0001ms, 0989ms total)
T11404 001:274 JLINK_SetBPEx(Addr = 0x1FFFFC00, Type = 0xFFFFFFF2)  returns 0x00000009 (0000ms, 0989ms total)
T11404 001:274 JLINK_Go() -- CPU_WriteMem(4 bytes @ 0xE0002000) -- CPU_ReadMem(4 bytes @ 0xE0001000) -- CPU_WriteMem(4 bytes @ 0xE0001000) (0005ms, 0994ms total)
T11404 001:279 JLINK_IsHalted()  returns FALSE (0001ms, 0995ms total)
T11404 001:285 JLINK_IsHalted()  returns TRUE (0004ms, 0998ms total)
T11404 001:289 JLINK_ReadReg(R15 (PC))  returns 0x1FFFFC00 (0000ms, 0994ms total)
T11404 001:289 JLINK_ClrBPEx(BPHandle = 0x00000009)  returns 0x00 (0000ms, 0994ms total)
T11404 001:289 JLINK_ReadReg(R0)  returns 0x00000000 (0000ms, 0994ms total)
T11404 001:290 JLINK_WriteMem(0x200001F8, 0x0100 Bytes, ...) - Data: 43 09 8B 42 01 D3 4B 01 C0 1A 52 41 03 09 8B 42 ... -- CPU_WriteMem(256 bytes @ 0x200001F8)  returns 0x100 (0004ms, 0998ms total)
T11404 001:294 JLINK_WriteReg(R0, 0x00000500)  returns 0x00 (0000ms, 0998ms total)
T11404 001:294 JLINK_WriteReg(R1, 0x00000100)  returns 0x00 (0000ms, 0998ms total)
T11404 001:294 JLINK_WriteReg(R2, 0x200001F8)  returns 0x00 (0000ms, 0998ms total)
T11404 001:294 JLINK_WriteReg(R3, 0x00000000)  returns 0x00 (0000ms, 0998ms total)
T11404 001:294 JLINK_WriteReg(R4, 0x00000000)  returns 0x00 (0000ms, 0998ms total)
T11404 001:294 JLINK_WriteReg(R5, 0x00000000)  returns 0x00 (0001ms, 0999ms total)
T11404 001:295 JLINK_WriteReg(R6, 0x00000000)  returns 0x00 (0000ms, 0999ms total)
T11404 001:295 JLINK_WriteReg(R7, 0x00000000)  returns 0x00 (0000ms, 0999ms total)
T11404 001:295 JLINK_WriteReg(R8, 0x00000000)  returns 0x00 (0000ms, 0999ms total)
T11404 001:295 JLINK_WriteReg(R9, 0x200001C8)  returns 0x00 (0000ms, 0999ms total)
T11404 001:295 JLINK_WriteReg(R10, 0x00000000)  returns 0x00 (0000ms, 0999ms total)
T11404 001:295 JLINK_WriteReg(R11, 0x00000000)  returns 0x00 (0000ms, 0999ms total)
T11404 001:295 JLINK_WriteReg(R12, 0x00000000)  returns 0x00 (0000ms, 0999ms total)
T11404 001:295 JLINK_WriteReg(R13 (SP), 0x20000C00)  returns 0x00 (0000ms, 0999ms total)
T11404 001:295 JLINK_WriteReg(R14, 0x1FFFFC01)  returns 0x00 (0000ms, 0999ms total)
T11404 001:295 JLINK_WriteReg(R15 (PC), 0x1FFFFCD4)  returns 0x00 (0000ms, 0999ms total)
T11404 001:295 JLINK_WriteReg(XPSR, 0x01000000)  returns 0x00 (0000ms, 0999ms total)
T11404 001:295 JLINK_WriteReg(MSP, 0x20000C00)  returns 0x00 (0000ms, 0999ms total)
T11404 001:295 JLINK_WriteReg(PSP, 0x20000C00)  returns 0x00 (0000ms, 0999ms total)
T11404 001:295 JLINK_WriteReg(CFBP, 0x00000000)  returns 0x00 (0000ms, 0999ms total)
T11404 001:295 JLINK_SetBPEx(Addr = 0x1FFFFC00, Type = 0xFFFFFFF2)  returns 0x0000000A (0000ms, 0999ms total)
T11404 001:295 JLINK_Go() -- CPU_WriteMem(4 bytes @ 0xE0002000) -- CPU_ReadMem(4 bytes @ 0xE0001000) -- CPU_WriteMem(4 bytes @ 0xE0001000) (0005ms, 1004ms total)
T11404 001:301 JLINK_IsHalted()  returns FALSE (0001ms, 1005ms total)
T11404 001:308 JLINK_IsHalted()  returns TRUE (0004ms, 1008ms total)
T11404 001:312 JLINK_ReadReg(R15 (PC))  returns 0x1FFFFC00 (0000ms, 1004ms total)
T11404 001:312 JLINK_ClrBPEx(BPHandle = 0x0000000A)  returns 0x00 (0000ms, 1004ms total)
T11404 001:312 JLINK_ReadReg(R0)  returns 0x00000000 (0000ms, 1004ms total)
T11404 001:313 JLINK_WriteMem(0x200001F8, 0x0100 Bytes, ...) - Data: 01 22 9A 18 1F 23 20 3C 1B 1B 01 D5 00 23 02 E0 ... -- CPU_WriteMem(256 bytes @ 0x200001F8)  returns 0x100 (0004ms, 1008ms total)
T11404 001:317 JLINK_WriteReg(R0, 0x00000600)  returns 0x00 (0000ms, 1008ms total)
T11404 001:317 JLINK_WriteReg(R1, 0x00000100)  returns 0x00 (0000ms, 1008ms total)
T11404 001:317 JLINK_WriteReg(R2, 0x200001F8)  returns 0x00 (0000ms, 1008ms total)
T11404 001:317 JLINK_WriteReg(R3, 0x00000000)  returns 0x00 (0000ms, 1008ms total)
T11404 001:317 JLINK_WriteReg(R4, 0x00000000)  returns 0x00 (0000ms, 1008ms total)
T11404 001:317 JLINK_WriteReg(R5, 0x00000000)  returns 0x00 (0000ms, 1008ms total)
T11404 001:317 JLINK_WriteReg(R6, 0x00000000)  returns 0x00 (0000ms, 1008ms total)
T11404 001:317 JLINK_WriteReg(R7, 0x00000000)  returns 0x00 (0000ms, 1008ms total)
T11404 001:317 JLINK_WriteReg(R8, 0x00000000)  returns 0x00 (0000ms, 1008ms total)
T11404 001:317 JLINK_WriteReg(R9, 0x200001C8)  returns 0x00 (0000ms, 1008ms total)
T11404 001:317 JLINK_WriteReg(R10, 0x00000000)  returns 0x00 (0000ms, 1008ms total)
T11404 001:317 JLINK_WriteReg(R11, 0x00000000)  returns 0x00 (0000ms, 1008ms total)
T11404 001:317 JLINK_WriteReg(R12, 0x00000000)  returns 0x00 (0000ms, 1008ms total)
T11404 001:317 JLINK_WriteReg(R13 (SP), 0x20000C00)  returns 0x00 (0000ms, 1008ms total)
T11404 001:317 JLINK_WriteReg(R14, 0x1FFFFC01)  returns 0x00 (0000ms, 1008ms total)
T11404 001:317 JLINK_WriteReg(R15 (PC), 0x1FFFFCD4)  returns 0x00 (0000ms, 1008ms total)
T11404 001:317 JLINK_WriteReg(XPSR, 0x01000000)  returns 0x00 (0001ms, 1009ms total)
T11404 001:318 JLINK_WriteReg(MSP, 0x20000C00)  returns 0x00 (0000ms, 1009ms total)
T11404 001:318 JLINK_WriteReg(PSP, 0x20000C00)  returns 0x00 (0000ms, 1009ms total)
T11404 001:318 JLINK_WriteReg(CFBP, 0x00000000)  returns 0x00 (0000ms, 1009ms total)
T11404 001:318 JLINK_SetBPEx(Addr = 0x1FFFFC00, Type = 0xFFFFFFF2)  returns 0x0000000B (0000ms, 1009ms total)
T11404 001:318 JLINK_Go() -- CPU_WriteMem(4 bytes @ 0xE0002000) -- CPU_ReadMem(4 bytes @ 0xE0001000) -- CPU_WriteMem(4 bytes @ 0xE0001000) (0005ms, 1014ms total)
T11404 001:323 JLINK_IsHalted()  returns FALSE (0001ms, 1015ms total)
T11404 001:326 JLINK_IsHalted()  returns FALSE (0000ms, 1014ms total)
T11404 001:329 JLINK_IsHalted()  returns TRUE (0004ms, 1018ms total)
T11404 001:333 JLINK_ReadReg(R15 (PC))  returns 0x1FFFFC00 (0000ms, 1014ms total)
T11404 001:333 JLINK_ClrBPEx(BPHandle = 0x0000000B)  returns 0x00 (0000ms, 1014ms total)
T11404 001:333 JLINK_ReadReg(R0)  returns 0x00000000 (0000ms, 1014ms total)
T11404 001:334 JLINK_WriteMem(0x200001F8, 0x0100 Bytes, ...) - Data: 25 D5 01 23 20 E0 93 18 2A 46 6A 41 52 00 00 2B ... -- CPU_WriteMem(256 bytes @ 0x200001F8)  returns 0x100 (0004ms, 1018ms total)
T11404 001:338 JLINK_WriteReg(R0, 0x00000700)  returns 0x00 (0000ms, 1018ms total)
T11404 001:338 JLINK_WriteReg(R1, 0x00000100)  returns 0x00 (0000ms, 1018ms total)
T11404 001:338 JLINK_WriteReg(R2, 0x200001F8)  returns 0x00 (0000ms, 1018ms total)
T11404 001:338 JLINK_WriteReg(R3, 0x00000000)  returns 0x00 (0000ms, 1018ms total)
T11404 001:338 JLINK_WriteReg(R4, 0x00000000)  returns 0x00 (0000ms, 1018ms total)
T11404 001:338 JLINK_WriteReg(R5, 0x00000000)  returns 0x00 (0000ms, 1018ms total)
T11404 001:338 JLINK_WriteReg(R6, 0x00000000)  returns 0x00 (0000ms, 1018ms total)
T11404 001:338 JLINK_WriteReg(R7, 0x00000000)  returns 0x00 (0000ms, 1018ms total)
T11404 001:338 JLINK_WriteReg(R8, 0x00000000)  returns 0x00 (0000ms, 1018ms total)
T11404 001:338 JLINK_WriteReg(R9, 0x200001C8)  returns 0x00 (0000ms, 1018ms total)
T11404 001:338 JLINK_WriteReg(R10, 0x00000000)  returns 0x00 (0000ms, 1018ms total)
T11404 001:338 JLINK_WriteReg(R11, 0x00000000)  returns 0x00 (0000ms, 1018ms total)
T11404 001:338 JLINK_WriteReg(R12, 0x00000000)  returns 0x00 (0000ms, 1018ms total)
T11404 001:339 JLINK_WriteReg(R13 (SP), 0x20000C00)  returns 0x00 (0000ms, 1019ms total)
T11404 001:339 JLINK_WriteReg(R14, 0x1FFFFC01)  returns 0x00 (0000ms, 1019ms total)
T11404 001:339 JLINK_WriteReg(R15 (PC), 0x1FFFFCD4)  returns 0x00 (0000ms, 1019ms total)
T11404 001:339 JLINK_WriteReg(XPSR, 0x01000000)  returns 0x00 (0000ms, 1019ms total)
T11404 001:339 JLINK_WriteReg(MSP, 0x20000C00)  returns 0x00 (0000ms, 1019ms total)
T11404 001:339 JLINK_WriteReg(PSP, 0x20000C00)  returns 0x00 (0000ms, 1019ms total)
T11404 001:339 JLINK_WriteReg(CFBP, 0x00000000)  returns 0x00 (0000ms, 1019ms total)
T11404 001:339 JLINK_SetBPEx(Addr = 0x1FFFFC00, Type = 0xFFFFFFF2)  returns 0x0000000C (0000ms, 1019ms total)
T11404 001:339 JLINK_Go() -- CPU_WriteMem(4 bytes @ 0xE0002000) -- CPU_ReadMem(4 bytes @ 0xE0001000) -- CPU_WriteMem(4 bytes @ 0xE0001000) (0005ms, 1024ms total)
T11404 001:344 JLINK_IsHalted()  returns FALSE (0001ms, 1025ms total)
T11404 001:347 JLINK_IsHalted()  returns FALSE (0000ms, 1024ms total)
T11404 001:350 JLINK_IsHalted()  returns TRUE (0004ms, 1028ms total)
T11404 001:354 JLINK_ReadReg(R15 (PC))  returns 0x1FFFFC00 (0000ms, 1024ms total)
T11404 001:354 JLINK_ClrBPEx(BPHandle = 0x0000000C)  returns 0x00 (0000ms, 1024ms total)
T11404 001:354 JLINK_ReadReg(R0)  returns 0x00000000 (0000ms, 1024ms total)
T11404 001:356 JLINK_WriteMem(0x200001F8, 0x0100 Bytes, ...) - Data: C9 07 00 20 A3 E7 49 05 49 0D 26 D1 00 20 01 E0 ... -- CPU_WriteMem(256 bytes @ 0x200001F8)  returns 0x100 (0004ms, 1028ms total)
T11404 001:360 JLINK_WriteReg(R0, 0x00000800)  returns 0x00 (0000ms, 1028ms total)
T11404 001:360 JLINK_WriteReg(R1, 0x00000100)  returns 0x00 (0000ms, 1028ms total)
T11404 001:360 JLINK_WriteReg(R2, 0x200001F8)  returns 0x00 (0000ms, 1028ms total)
T11404 001:360 JLINK_WriteReg(R3, 0x00000000)  returns 0x00 (0000ms, 1028ms total)
T11404 001:360 JLINK_WriteReg(R4, 0x00000000)  returns 0x00 (0000ms, 1028ms total)
T11404 001:360 JLINK_WriteReg(R5, 0x00000000)  returns 0x00 (0000ms, 1028ms total)
T11404 001:360 JLINK_WriteReg(R6, 0x00000000)  returns 0x00 (0000ms, 1028ms total)
T11404 001:360 JLINK_WriteReg(R7, 0x00000000)  returns 0x00 (0000ms, 1028ms total)
T11404 001:360 JLINK_WriteReg(R8, 0x00000000)  returns 0x00 (0000ms, 1028ms total)
T11404 001:360 JLINK_WriteReg(R9, 0x200001C8)  returns 0x00 (0000ms, 1028ms total)
T11404 001:360 JLINK_WriteReg(R10, 0x00000000)  returns 0x00 (0000ms, 1028ms total)
T11404 001:360 JLINK_WriteReg(R11, 0x00000000)  returns 0x00 (0000ms, 1028ms total)
T11404 001:360 JLINK_WriteReg(R12, 0x00000000)  returns 0x00 (0000ms, 1028ms total)
T11404 001:360 JLINK_WriteReg(R13 (SP), 0x20000C00)  returns 0x00 (0000ms, 1028ms total)
T11404 001:360 JLINK_WriteReg(R14, 0x1FFFFC01)  returns 0x00 (0000ms, 1028ms total)
T11404 001:360 JLINK_WriteReg(R15 (PC), 0x1FFFFCD4)  returns 0x00 (0000ms, 1028ms total)
T11404 001:360 JLINK_WriteReg(XPSR, 0x01000000)  returns 0x00 (0000ms, 1028ms total)
T11404 001:360 JLINK_WriteReg(MSP, 0x20000C00)  returns 0x00 (0000ms, 1028ms total)
T11404 001:360 JLINK_WriteReg(PSP, 0x20000C00)  returns 0x00 (0000ms, 1028ms total)
T11404 001:360 JLINK_WriteReg(CFBP, 0x00000000)  returns 0x00 (0000ms, 1028ms total)
T11404 001:360 JLINK_SetBPEx(Addr = 0x1FFFFC00, Type = 0xFFFFFFF2)  returns 0x0000000D (0000ms, 1028ms total)
T11404 001:360 JLINK_Go() -- CPU_WriteMem(4 bytes @ 0xE0002000) -- CPU_ReadMem(4 bytes @ 0xE0001000) -- CPU_WriteMem(4 bytes @ 0xE0001000) (0006ms, 1034ms total)
T11404 001:366 JLINK_IsHalted()  returns FALSE (0001ms, 1035ms total)
T11404 001:369 JLINK_IsHalted()  returns FALSE (0000ms, 1034ms total)
T11404 001:371 JLINK_IsHalted()  returns TRUE (0004ms, 1038ms total)
T11404 001:375 JLINK_ReadReg(R15 (PC))  returns 0x1FFFFC00 (0000ms, 1034ms total)
T11404 001:375 JLINK_ClrBPEx(BPHandle = 0x0000000D)  returns 0x00 (0000ms, 1034ms total)
T11404 001:375 JLINK_ReadReg(R0)  returns 0x00000000 (0000ms, 1034ms total)
T11404 001:377 JLINK_WriteMem(0x200001F8, 0x0100 Bytes, ...) - Data: DC 02 04 43 01 20 C0 07 01 43 04 43 D2 02 01 91 ... -- CPU_WriteMem(256 bytes @ 0x200001F8)  returns 0x100 (0004ms, 1038ms total)
T11404 001:381 JLINK_WriteReg(R0, 0x00000900)  returns 0x00 (0000ms, 1038ms total)
T11404 001:381 JLINK_WriteReg(R1, 0x00000100)  returns 0x00 (0000ms, 1038ms total)
T11404 001:381 JLINK_WriteReg(R2, 0x200001F8)  returns 0x00 (0000ms, 1038ms total)
T11404 001:381 JLINK_WriteReg(R3, 0x00000000)  returns 0x00 (0000ms, 1038ms total)
T11404 001:381 JLINK_WriteReg(R4, 0x00000000)  returns 0x00 (0000ms, 1038ms total)
T11404 001:381 JLINK_WriteReg(R5, 0x00000000)  returns 0x00 (0000ms, 1038ms total)
T11404 001:381 JLINK_WriteReg(R6, 0x00000000)  returns 0x00 (0000ms, 1038ms total)
T11404 001:381 JLINK_WriteReg(R7, 0x00000000)  returns 0x00 (0000ms, 1038ms total)
T11404 001:381 JLINK_WriteReg(R8, 0x00000000)  returns 0x00 (0000ms, 1038ms total)
T11404 001:381 JLINK_WriteReg(R9, 0x200001C8)  returns 0x00 (0000ms, 1038ms total)
T11404 001:381 JLINK_WriteReg(R10, 0x00000000)  returns 0x00 (0000ms, 1038ms total)
T11404 001:381 JLINK_WriteReg(R11, 0x00000000)  returns 0x00 (0000ms, 1038ms total)
T11404 001:381 JLINK_WriteReg(R12, 0x00000000)  returns 0x00 (0000ms, 1038ms total)
T11404 001:382 JLINK_WriteReg(R13 (SP), 0x20000C00)  returns 0x00 (0000ms, 1039ms total)
T11404 001:382 JLINK_WriteReg(R14, 0x1FFFFC01)  returns 0x00 (0000ms, 1039ms total)
T11404 001:382 JLINK_WriteReg(R15 (PC), 0x1FFFFCD4)  returns 0x00 (0000ms, 1039ms total)
T11404 001:382 JLINK_WriteReg(XPSR, 0x01000000)  returns 0x00 (0000ms, 1039ms total)
T11404 001:382 JLINK_WriteReg(MSP, 0x20000C00)  returns 0x00 (0000ms, 1039ms total)
T11404 001:382 JLINK_WriteReg(PSP, 0x20000C00)  returns 0x00 (0000ms, 1039ms total)
T11404 001:382 JLINK_WriteReg(CFBP, 0x00000000)  returns 0x00 (0000ms, 1039ms total)
T11404 001:382 JLINK_SetBPEx(Addr = 0x1FFFFC00, Type = 0xFFFFFFF2)  returns 0x0000000E (0000ms, 1039ms total)
T11404 001:382 JLINK_Go() -- CPU_WriteMem(4 bytes @ 0xE0002000) -- CPU_ReadMem(4 bytes @ 0xE0001000) -- CPU_WriteMem(4 bytes @ 0xE0001000) (0005ms, 1044ms total)
T11404 001:387 JLINK_IsHalted()  returns FALSE (0001ms, 1045ms total)
T11404 001:394 JLINK_IsHalted()  returns TRUE (0004ms, 1048ms total)
T11404 001:398 JLINK_ReadReg(R15 (PC))  returns 0x1FFFFC00 (0000ms, 1044ms total)
T11404 001:398 JLINK_ClrBPEx(BPHandle = 0x0000000E)  returns 0x00 (0000ms, 1044ms total)
T11404 001:398 JLINK_ReadReg(R0)  returns 0x00000000 (0000ms, 1044ms total)
T11404 001:399 JLINK_WriteMem(0x200001F8, 0x0100 Bytes, ...) - Data: 02 94 74 46 04 9D E4 04 2C 1B 04 94 06 D2 02 9C ... -- CPU_WriteMem(256 bytes @ 0x200001F8)  returns 0x100 (0004ms, 1048ms total)
T11404 001:403 JLINK_WriteReg(R0, 0x00000A00)  returns 0x00 (0000ms, 1048ms total)
T11404 001:403 JLINK_WriteReg(R1, 0x00000100)  returns 0x00 (0000ms, 1048ms total)
T11404 001:403 JLINK_WriteReg(R2, 0x200001F8)  returns 0x00 (0000ms, 1048ms total)
T11404 001:403 JLINK_WriteReg(R3, 0x00000000)  returns 0x00 (0000ms, 1048ms total)
T11404 001:403 JLINK_WriteReg(R4, 0x00000000)  returns 0x00 (0000ms, 1048ms total)
T11404 001:403 JLINK_WriteReg(R5, 0x00000000)  returns 0x00 (0000ms, 1048ms total)
T11404 001:403 JLINK_WriteReg(R6, 0x00000000)  returns 0x00 (0000ms, 1048ms total)
T11404 001:403 JLINK_WriteReg(R7, 0x00000000)  returns 0x00 (0000ms, 1048ms total)
T11404 001:403 JLINK_WriteReg(R8, 0x00000000)  returns 0x00 (0000ms, 1048ms total)
T11404 001:404 JLINK_WriteReg(R9, 0x200001C8)  returns 0x00 (0000ms, 1048ms total)
T11404 001:404 JLINK_WriteReg(R10, 0x00000000)  returns 0x00 (0000ms, 1048ms total)
T11404 001:404 JLINK_WriteReg(R11, 0x00000000)  returns 0x00 (0000ms, 1048ms total)
T11404 001:404 JLINK_WriteReg(R12, 0x00000000)  returns 0x00 (0000ms, 1048ms total)
T11404 001:404 JLINK_WriteReg(R13 (SP), 0x20000C00)  returns 0x00 (0000ms, 1048ms total)
T11404 001:404 JLINK_WriteReg(R14, 0x1FFFFC01)  returns 0x00 (0000ms, 1048ms total)
T11404 001:404 JLINK_WriteReg(R15 (PC), 0x1FFFFCD4)  returns 0x00 (0000ms, 1048ms total)
T11404 001:404 JLINK_WriteReg(XPSR, 0x01000000)  returns 0x00 (0000ms, 1048ms total)
T11404 001:404 JLINK_WriteReg(MSP, 0x20000C00)  returns 0x00 (0000ms, 1048ms total)
T11404 001:404 JLINK_WriteReg(PSP, 0x20000C00)  returns 0x00 (0000ms, 1048ms total)
T11404 001:404 JLINK_WriteReg(CFBP, 0x00000000)  returns 0x00 (0000ms, 1048ms total)
T11404 001:404 JLINK_SetBPEx(Addr = 0x1FFFFC00, Type = 0xFFFFFFF2)  returns 0x0000000F (0000ms, 1048ms total)
T11404 001:404 JLINK_Go() -- CPU_WriteMem(4 bytes @ 0xE0002000) -- CPU_ReadMem(4 bytes @ 0xE0001000) -- CPU_WriteMem(4 bytes @ 0xE0001000) (0006ms, 1054ms total)
T11404 001:410 JLINK_IsHalted()  returns FALSE (0001ms, 1055ms total)
T11404 001:413 JLINK_IsHalted()  returns FALSE (0000ms, 1054ms total)
T11404 001:415 JLINK_IsHalted()  returns TRUE (0004ms, 1058ms total)
T11404 001:419 JLINK_ReadReg(R15 (PC))  returns 0x1FFFFC00 (0000ms, 1054ms total)
T11404 001:419 JLINK_ClrBPEx(BPHandle = 0x0000000F)  returns 0x00 (0000ms, 1054ms total)
T11404 001:419 JLINK_ReadReg(R0)  returns 0x00000000 (0000ms, 1054ms total)
T11404 001:420 JLINK_WriteMem(0x200001F8, 0x0100 Bytes, ...) - Data: 65 43 6C 0B 3C 43 04 9F ED 04 7D 1B AC 46 02 D2 ... -- CPU_WriteMem(256 bytes @ 0x200001F8)  returns 0x100 (0004ms, 1058ms total)
T11404 001:425 JLINK_WriteReg(R0, 0x00000B00)  returns 0x00 (0000ms, 1058ms total)
T11404 001:425 JLINK_WriteReg(R1, 0x00000100)  returns 0x00 (0000ms, 1058ms total)
T11404 001:425 JLINK_WriteReg(R2, 0x200001F8)  returns 0x00 (0000ms, 1058ms total)
T11404 001:425 JLINK_WriteReg(R3, 0x00000000)  returns 0x00 (0000ms, 1058ms total)
T11404 001:425 JLINK_WriteReg(R4, 0x00000000)  returns 0x00 (0000ms, 1058ms total)
T11404 001:425 JLINK_WriteReg(R5, 0x00000000)  returns 0x00 (0000ms, 1058ms total)
T11404 001:425 JLINK_WriteReg(R6, 0x00000000)  returns 0x00 (0000ms, 1058ms total)
T11404 001:425 JLINK_WriteReg(R7, 0x00000000)  returns 0x00 (0000ms, 1058ms total)
T11404 001:425 JLINK_WriteReg(R8, 0x00000000)  returns 0x00 (0000ms, 1058ms total)
T11404 001:425 JLINK_WriteReg(R9, 0x200001C8)  returns 0x00 (0000ms, 1058ms total)
T11404 001:425 JLINK_WriteReg(R10, 0x00000000)  returns 0x00 (0000ms, 1058ms total)
T11404 001:425 JLINK_WriteReg(R11, 0x00000000)  returns 0x00 (0000ms, 1058ms total)
T11404 001:425 JLINK_WriteReg(R12, 0x00000000)  returns 0x00 (0000ms, 1058ms total)
T11404 001:425 JLINK_WriteReg(R13 (SP), 0x20000C00)  returns 0x00 (0000ms, 1058ms total)
T11404 001:425 JLINK_WriteReg(R14, 0x1FFFFC01)  returns 0x00 (0000ms, 1058ms total)
